
Circuit: Alínea 3 

Doing analysis at TEMP = 27.000000 and TNOM = 27.000000


Initial Transient Solution
--------------------------

Node                                   Voltage
----                                   -------
1                                            0
2                                            0
3                                            0
5                                            0
6                                      8.63481
71                                           0
72                                           0
8                                  1.77636e-15
hd#branch                                    0
vaux#branch                                  0
vs#branch                                    0



No. of Data Rows : 34
                                   Alínea 3 
                                   Transient Analysis  Thu Apr  1 16:27:33  2021
--------------------------------------------------------------------------------
Index   time            @ca[i]          @gb[i]          @r1[i]          
--------------------------------------------------------------------------------
0	0.000000e+00	0.000000e+00	0.000000e+00	0.000000e+00	
1	2.000000e-06	-9.46754e-11	-2.53212e-04	2.414774e-04	
2	4.000000e-06	-9.46168e-11	-2.53212e-04	2.414774e-04	
3	8.000000e-06	-9.44961e-11	-2.53212e-04	2.414774e-04	
4	1.600000e-05	-9.42538e-11	-2.53212e-04	2.414774e-04	
5	3.200000e-05	-9.37752e-11	-2.53212e-04	2.414774e-04	
6	6.400000e-05	-9.28242e-11	-2.53212e-04	2.414774e-04	
7	1.280000e-04	-9.09509e-11	-2.53212e-04	2.414774e-04	
8	2.560000e-04	-8.73167e-11	-2.53212e-04	2.414774e-04	
9	5.120000e-04	-8.04753e-11	-2.53212e-04	2.414774e-04	
10	1.000000e-03	-6.88678e-11	-2.53212e-04	2.414774e-04	
11	1.051200e-03	-6.77627e-11	-2.53212e-04	2.414774e-04	
12	1.153600e-03	-6.55879e-11	-2.53212e-04	2.414774e-04	
13	1.358400e-03	-6.14442e-11	-2.53212e-04	2.414774e-04	
14	1.768000e-03	-5.39184e-11	-2.53212e-04	2.414774e-04	
15	2.587200e-03	-4.14724e-11	-2.53212e-04	2.414774e-04	
16	3.587200e-03	-3.00768e-11	-2.53212e-04	2.414774e-04	
17	4.587200e-03	-2.18124e-11	-2.53212e-04	2.414774e-04	
18	5.587200e-03	-1.58189e-11	-2.53212e-04	2.414774e-04	
19	6.587200e-03	-1.14722e-11	-2.53212e-04	2.414774e-04	
20	7.587200e-03	-8.31995e-12	-2.53212e-04	2.414774e-04	
21	8.587200e-03	-6.03383e-12	-2.53212e-04	2.414774e-04	
22	9.587200e-03	-4.37588e-12	-2.53212e-04	2.414774e-04	
23	1.058720e-02	-3.17350e-12	-2.53212e-04	2.414774e-04	
24	1.158720e-02	-2.30149e-12	-2.53212e-04	2.414774e-04	
25	1.258720e-02	-1.66910e-12	-2.53212e-04	2.414774e-04	
26	1.358720e-02	-1.21048e-12	-2.53212e-04	2.414774e-04	
27	1.458720e-02	-8.77861e-13	-2.53212e-04	2.414774e-04	
28	1.558720e-02	-6.36644e-13	-2.53212e-04	2.414774e-04	
29	1.658720e-02	-4.61714e-13	-2.53212e-04	2.414774e-04	
30	1.758720e-02	-3.34846e-13	-2.53212e-04	2.414774e-04	
31	1.858720e-02	-2.42837e-13	-2.53212e-04	2.414774e-04	
32	1.958720e-02	-1.76109e-13	-2.53212e-04	2.414774e-04	
33	2.000000e-02	-1.54398e-13	-2.53212e-04	2.414774e-04	

                                   Alínea 3 
                                   Transient Analysis  Thu Apr  1 16:27:33  2021
--------------------------------------------------------------------------------
Index   time            @r2[i]          @r3[i]          @r4[i]          
--------------------------------------------------------------------------------
0	0.000000e+00	0.000000e+00	0.000000e+00	0.000000e+00	
1	2.000000e-06	2.532123e-04	-1.17349e-05	-1.20106e-03	
2	4.000000e-06	2.532123e-04	-1.17349e-05	-1.20106e-03	
3	8.000000e-06	2.532123e-04	-1.17349e-05	-1.20106e-03	
4	1.600000e-05	2.532123e-04	-1.17349e-05	-1.20106e-03	
5	3.200000e-05	2.532123e-04	-1.17349e-05	-1.20106e-03	
6	6.400000e-05	2.532123e-04	-1.17349e-05	-1.20106e-03	
7	1.280000e-04	2.532123e-04	-1.17349e-05	-1.20106e-03	
8	2.560000e-04	2.532123e-04	-1.17349e-05	-1.20106e-03	
9	5.120000e-04	2.532123e-04	-1.17349e-05	-1.20106e-03	
10	1.000000e-03	2.532123e-04	-1.17349e-05	-1.20106e-03	
11	1.051200e-03	2.532123e-04	-1.17349e-05	-1.20106e-03	
12	1.153600e-03	2.532123e-04	-1.17349e-05	-1.20106e-03	
13	1.358400e-03	2.532123e-04	-1.17349e-05	-1.20106e-03	
14	1.768000e-03	2.532123e-04	-1.17349e-05	-1.20106e-03	
15	2.587200e-03	2.532123e-04	-1.17349e-05	-1.20106e-03	
16	3.587200e-03	2.532123e-04	-1.17349e-05	-1.20106e-03	
17	4.587200e-03	2.532123e-04	-1.17349e-05	-1.20106e-03	
18	5.587200e-03	2.532123e-04	-1.17349e-05	-1.20106e-03	
19	6.587200e-03	2.532123e-04	-1.17349e-05	-1.20106e-03	
20	7.587200e-03	2.532123e-04	-1.17349e-05	-1.20106e-03	
21	8.587200e-03	2.532123e-04	-1.17349e-05	-1.20106e-03	
22	9.587200e-03	2.532123e-04	-1.17349e-05	-1.20106e-03	
23	1.058720e-02	2.532123e-04	-1.17349e-05	-1.20106e-03	
24	1.158720e-02	2.532123e-04	-1.17349e-05	-1.20106e-03	
25	1.258720e-02	2.532123e-04	-1.17349e-05	-1.20106e-03	
26	1.358720e-02	2.532123e-04	-1.17349e-05	-1.20106e-03	
27	1.458720e-02	2.532123e-04	-1.17349e-05	-1.20106e-03	
28	1.558720e-02	2.532123e-04	-1.17349e-05	-1.20106e-03	
29	1.658720e-02	2.532123e-04	-1.17349e-05	-1.20106e-03	
30	1.758720e-02	2.532123e-04	-1.17349e-05	-1.20106e-03	
31	1.858720e-02	2.532123e-04	-1.17349e-05	-1.20106e-03	
32	1.958720e-02	2.532123e-04	-1.17349e-05	-1.20106e-03	
33	2.000000e-02	2.532123e-04	-1.17349e-05	-1.20106e-03	

                                   Alínea 3 
                                   Transient Analysis  Thu Apr  1 16:27:33  2021
--------------------------------------------------------------------------------
Index   time            @r5[i]          @r6[i]          @r7[i]          
--------------------------------------------------------------------------------
0	0.000000e+00	-2.83857e-03	0.000000e+00	-1.74291e-18	
1	2.000000e-06	-2.53212e-04	9.595831e-04	9.595831e-04	
2	4.000000e-06	-2.53212e-04	9.595831e-04	9.595831e-04	
3	8.000000e-06	-2.53212e-04	9.595831e-04	9.595831e-04	
4	1.600000e-05	-2.53212e-04	9.595831e-04	9.595831e-04	
5	3.200000e-05	-2.53212e-04	9.595831e-04	9.595831e-04	
6	6.400000e-05	-2.53212e-04	9.595831e-04	9.595831e-04	
7	1.280000e-04	-2.53212e-04	9.595831e-04	9.595831e-04	
8	2.560000e-04	-2.53212e-04	9.595831e-04	9.595831e-04	
9	5.120000e-04	-2.53212e-04	9.595831e-04	9.595831e-04	
10	1.000000e-03	-2.53212e-04	9.595831e-04	9.595831e-04	
11	1.051200e-03	-2.53212e-04	9.595831e-04	9.595831e-04	
12	1.153600e-03	-2.53212e-04	9.595831e-04	9.595831e-04	
13	1.358400e-03	-2.53212e-04	9.595831e-04	9.595831e-04	
14	1.768000e-03	-2.53212e-04	9.595831e-04	9.595831e-04	
15	2.587200e-03	-2.53212e-04	9.595831e-04	9.595831e-04	
16	3.587200e-03	-2.53212e-04	9.595831e-04	9.595831e-04	
17	4.587200e-03	-2.53212e-04	9.595831e-04	9.595831e-04	
18	5.587200e-03	-2.53212e-04	9.595831e-04	9.595831e-04	
19	6.587200e-03	-2.53212e-04	9.595831e-04	9.595831e-04	
20	7.587200e-03	-2.53212e-04	9.595831e-04	9.595831e-04	
21	8.587200e-03	-2.53212e-04	9.595831e-04	9.595831e-04	
22	9.587200e-03	-2.53212e-04	9.595831e-04	9.595831e-04	
23	1.058720e-02	-2.53212e-04	9.595831e-04	9.595831e-04	
24	1.158720e-02	-2.53212e-04	9.595831e-04	9.595831e-04	
25	1.258720e-02	-2.53212e-04	9.595831e-04	9.595831e-04	
26	1.358720e-02	-2.53212e-04	9.595831e-04	9.595831e-04	
27	1.458720e-02	-2.53212e-04	9.595831e-04	9.595831e-04	
28	1.558720e-02	-2.53212e-04	9.595831e-04	9.595831e-04	
29	1.658720e-02	-2.53212e-04	9.595831e-04	9.595831e-04	
30	1.758720e-02	-2.53212e-04	9.595831e-04	9.595831e-04	
31	1.858720e-02	-2.53212e-04	9.595831e-04	9.595831e-04	
32	1.958720e-02	-2.53212e-04	9.595831e-04	9.595831e-04	
33	2.000000e-02	-2.53212e-04	9.595831e-04	9.595831e-04	

                                   Alínea 3 
                                   Transient Analysis  Thu Apr  1 16:27:33  2021
--------------------------------------------------------------------------------
Index   time            V(1)            V(2)            V(3)            
--------------------------------------------------------------------------------
0	0.000000e+00	0.000000e+00	0.000000e+00	0.000000e+00	
1	2.000000e-06	5.136122e+00	4.884647e+00	4.361951e+00	
2	4.000000e-06	5.136122e+00	4.884647e+00	4.361951e+00	
3	8.000000e-06	5.136122e+00	4.884647e+00	4.361951e+00	
4	1.600000e-05	5.136122e+00	4.884647e+00	4.361951e+00	
5	3.200000e-05	5.136122e+00	4.884647e+00	4.361951e+00	
6	6.400000e-05	5.136122e+00	4.884647e+00	4.361951e+00	
7	1.280000e-04	5.136122e+00	4.884647e+00	4.361951e+00	
8	2.560000e-04	5.136122e+00	4.884647e+00	4.361951e+00	
9	5.120000e-04	5.136122e+00	4.884647e+00	4.361951e+00	
10	1.000000e-03	5.136122e+00	4.884647e+00	4.361951e+00	
11	1.051200e-03	5.136122e+00	4.884647e+00	4.361951e+00	
12	1.153600e-03	5.136122e+00	4.884647e+00	4.361951e+00	
13	1.358400e-03	5.136122e+00	4.884647e+00	4.361951e+00	
14	1.768000e-03	5.136122e+00	4.884647e+00	4.361951e+00	
15	2.587200e-03	5.136122e+00	4.884647e+00	4.361951e+00	
16	3.587200e-03	5.136122e+00	4.884647e+00	4.361951e+00	
17	4.587200e-03	5.136122e+00	4.884647e+00	4.361951e+00	
18	5.587200e-03	5.136122e+00	4.884647e+00	4.361951e+00	
19	6.587200e-03	5.136122e+00	4.884647e+00	4.361951e+00	
20	7.587200e-03	5.136122e+00	4.884647e+00	4.361951e+00	
21	8.587200e-03	5.136122e+00	4.884647e+00	4.361951e+00	
22	9.587200e-03	5.136122e+00	4.884647e+00	4.361951e+00	
23	1.058720e-02	5.136122e+00	4.884647e+00	4.361951e+00	
24	1.158720e-02	5.136122e+00	4.884647e+00	4.361951e+00	
25	1.258720e-02	5.136122e+00	4.884647e+00	4.361951e+00	
26	1.358720e-02	5.136122e+00	4.884647e+00	4.361951e+00	
27	1.458720e-02	5.136122e+00	4.884647e+00	4.361951e+00	
28	1.558720e-02	5.136122e+00	4.884647e+00	4.361951e+00	
29	1.658720e-02	5.136122e+00	4.884647e+00	4.361951e+00	
30	1.758720e-02	5.136122e+00	4.884647e+00	4.361951e+00	
31	1.858720e-02	5.136122e+00	4.884647e+00	4.361951e+00	
32	1.958720e-02	5.136122e+00	4.884647e+00	4.361951e+00	
33	2.000000e-02	5.136122e+00	4.884647e+00	4.361951e+00	

                                   Alínea 3 
                                   Transient Analysis  Thu Apr  1 16:27:33  2021
--------------------------------------------------------------------------------
Index   time            V(5)            V(6)            V(8)            
--------------------------------------------------------------------------------
0	0.000000e+00	0.000000e+00	8.634810e+00	1.776357e-15	
1	2.000000e-06	4.920010e+00	5.690271e+00	-2.94454e+00	
2	4.000000e-06	4.920010e+00	5.690271e+00	-2.94454e+00	
3	8.000000e-06	4.920010e+00	5.690271e+00	-2.94454e+00	
4	1.600000e-05	4.920010e+00	5.690271e+00	-2.94454e+00	
5	3.200000e-05	4.920010e+00	5.690271e+00	-2.94454e+00	
6	6.400000e-05	4.920010e+00	5.690271e+00	-2.94454e+00	
7	1.280000e-04	4.920010e+00	5.690271e+00	-2.94454e+00	
8	2.560000e-04	4.920010e+00	5.690271e+00	-2.94454e+00	
9	5.120000e-04	4.920010e+00	5.690271e+00	-2.94454e+00	
10	1.000000e-03	4.920010e+00	5.690271e+00	-2.94454e+00	
11	1.051200e-03	4.920010e+00	5.690271e+00	-2.94454e+00	
12	1.153600e-03	4.920010e+00	5.690271e+00	-2.94454e+00	
13	1.358400e-03	4.920010e+00	5.690271e+00	-2.94454e+00	
14	1.768000e-03	4.920010e+00	5.690271e+00	-2.94454e+00	
15	2.587200e-03	4.920010e+00	5.690271e+00	-2.94454e+00	
16	3.587200e-03	4.920010e+00	5.690271e+00	-2.94454e+00	
17	4.587200e-03	4.920010e+00	5.690271e+00	-2.94454e+00	
18	5.587200e-03	4.920010e+00	5.690271e+00	-2.94454e+00	
19	6.587200e-03	4.920010e+00	5.690271e+00	-2.94454e+00	
20	7.587200e-03	4.920010e+00	5.690271e+00	-2.94454e+00	
21	8.587200e-03	4.920010e+00	5.690271e+00	-2.94454e+00	
22	9.587200e-03	4.920010e+00	5.690271e+00	-2.94454e+00	
23	1.058720e-02	4.920010e+00	5.690271e+00	-2.94454e+00	
24	1.158720e-02	4.920010e+00	5.690271e+00	-2.94454e+00	
25	1.258720e-02	4.920010e+00	5.690271e+00	-2.94454e+00	
26	1.358720e-02	4.920010e+00	5.690271e+00	-2.94454e+00	
27	1.458720e-02	4.920010e+00	5.690271e+00	-2.94454e+00	
28	1.558720e-02	4.920010e+00	5.690271e+00	-2.94454e+00	
29	1.658720e-02	4.920010e+00	5.690271e+00	-2.94454e+00	
30	1.758720e-02	4.920010e+00	5.690271e+00	-2.94454e+00	
31	1.858720e-02	4.920010e+00	5.690271e+00	-2.94454e+00	
32	1.958720e-02	4.920010e+00	5.690271e+00	-2.94454e+00	
33	2.000000e-02	4.920010e+00	5.690271e+00	-2.94454e+00	

                                   Alínea 3 
                                   Transient Analysis  Thu Apr  1 16:27:33  2021
--------------------------------------------------------------------------------
Index   time            V(71)           V(72)           hd#branch       
--------------------------------------------------------------------------------
0	0.000000e+00	0.000000e+00	0.000000e+00	0.000000e+00	
1	2.000000e-06	-1.96654e+00	-1.96654e+00	-9.59583e-04	
2	4.000000e-06	-1.96654e+00	-1.96654e+00	-9.59583e-04	
3	8.000000e-06	-1.96654e+00	-1.96654e+00	-9.59583e-04	
4	1.600000e-05	-1.96654e+00	-1.96654e+00	-9.59583e-04	
5	3.200000e-05	-1.96654e+00	-1.96654e+00	-9.59583e-04	
6	6.400000e-05	-1.96654e+00	-1.96654e+00	-9.59583e-04	
7	1.280000e-04	-1.96654e+00	-1.96654e+00	-9.59583e-04	
8	2.560000e-04	-1.96654e+00	-1.96654e+00	-9.59583e-04	
9	5.120000e-04	-1.96654e+00	-1.96654e+00	-9.59583e-04	
10	1.000000e-03	-1.96654e+00	-1.96654e+00	-9.59583e-04	
11	1.051200e-03	-1.96654e+00	-1.96654e+00	-9.59583e-04	
12	1.153600e-03	-1.96654e+00	-1.96654e+00	-9.59583e-04	
13	1.358400e-03	-1.96654e+00	-1.96654e+00	-9.59583e-04	
14	1.768000e-03	-1.96654e+00	-1.96654e+00	-9.59583e-04	
15	2.587200e-03	-1.96654e+00	-1.96654e+00	-9.59583e-04	
16	3.587200e-03	-1.96654e+00	-1.96654e+00	-9.59583e-04	
17	4.587200e-03	-1.96654e+00	-1.96654e+00	-9.59583e-04	
18	5.587200e-03	-1.96654e+00	-1.96654e+00	-9.59583e-04	
19	6.587200e-03	-1.96654e+00	-1.96654e+00	-9.59583e-04	
20	7.587200e-03	-1.96654e+00	-1.96654e+00	-9.59583e-04	
21	8.587200e-03	-1.96654e+00	-1.96654e+00	-9.59583e-04	
22	9.587200e-03	-1.96654e+00	-1.96654e+00	-9.59583e-04	
23	1.058720e-02	-1.96654e+00	-1.96654e+00	-9.59583e-04	
24	1.158720e-02	-1.96654e+00	-1.96654e+00	-9.59583e-04	
25	1.258720e-02	-1.96654e+00	-1.96654e+00	-9.59583e-04	
26	1.358720e-02	-1.96654e+00	-1.96654e+00	-9.59583e-04	
27	1.458720e-02	-1.96654e+00	-1.96654e+00	-9.59583e-04	
28	1.558720e-02	-1.96654e+00	-1.96654e+00	-9.59583e-04	
29	1.658720e-02	-1.96654e+00	-1.96654e+00	-9.59583e-04	
30	1.758720e-02	-1.96654e+00	-1.96654e+00	-9.59583e-04	
31	1.858720e-02	-1.96654e+00	-1.96654e+00	-9.59583e-04	
32	1.958720e-02	-1.96654e+00	-1.96654e+00	-9.59583e-04	
33	2.000000e-02	-1.96654e+00	-1.96654e+00	-9.59583e-04	

                                   Alínea 3 
                                   Transient Analysis  Thu Apr  1 16:27:33  2021
--------------------------------------------------------------------------------
Index   time            vaux#branch     vs#branch       
--------------------------------------------------------------------------------
0	0.000000e+00	0.000000e+00	0.000000e+00	
1	2.000000e-06	9.595831e-04	-2.41477e-04	
2	4.000000e-06	9.595831e-04	-2.41477e-04	
3	8.000000e-06	9.595831e-04	-2.41477e-04	
4	1.600000e-05	9.595831e-04	-2.41477e-04	
5	3.200000e-05	9.595831e-04	-2.41477e-04	
6	6.400000e-05	9.595831e-04	-2.41477e-04	
7	1.280000e-04	9.595831e-04	-2.41477e-04	
8	2.560000e-04	9.595831e-04	-2.41477e-04	
9	5.120000e-04	9.595831e-04	-2.41477e-04	
10	1.000000e-03	9.595831e-04	-2.41477e-04	
11	1.051200e-03	9.595831e-04	-2.41477e-04	
12	1.153600e-03	9.595831e-04	-2.41477e-04	
13	1.358400e-03	9.595831e-04	-2.41477e-04	
14	1.768000e-03	9.595831e-04	-2.41477e-04	
15	2.587200e-03	9.595831e-04	-2.41477e-04	
16	3.587200e-03	9.595831e-04	-2.41477e-04	
17	4.587200e-03	9.595831e-04	-2.41477e-04	
18	5.587200e-03	9.595831e-04	-2.41477e-04	
19	6.587200e-03	9.595831e-04	-2.41477e-04	
20	7.587200e-03	9.595831e-04	-2.41477e-04	
21	8.587200e-03	9.595831e-04	-2.41477e-04	
22	9.587200e-03	9.595831e-04	-2.41477e-04	
23	1.058720e-02	9.595831e-04	-2.41477e-04	
24	1.158720e-02	9.595831e-04	-2.41477e-04	
25	1.258720e-02	9.595831e-04	-2.41477e-04	
26	1.358720e-02	9.595831e-04	-2.41477e-04	
27	1.458720e-02	9.595831e-04	-2.41477e-04	
28	1.558720e-02	9.595831e-04	-2.41477e-04	
29	1.658720e-02	9.595831e-04	-2.41477e-04	
30	1.758720e-02	9.595831e-04	-2.41477e-04	
31	1.858720e-02	9.595831e-04	-2.41477e-04	
32	1.958720e-02	9.595831e-04	-2.41477e-04	
33	2.000000e-02	9.595831e-04	-2.41477e-04	
